(1714938995.026186) can0 103#01030D0225FFFD62
(1714938995.026648) can0 103#0203000002240101
(1714938995.027175) can0 103#030000025800012E
(1714938995.027669) can0 103#040D78090D540F64
(1714938995.028084) can0 103#054C4736000233D7
(1714938995.028582) can0 103#060225FFFF000020
(1714938995.029037) can0 103#07000010080FA461
(1714938995.029557) can0 103#0822050054450070
(1714938995.030051) can0 103#091493FB87000001
(1714938995.030503) can0 103#0A00000000000226
(1714938995.031023) can0 103#0B00000000000001
(1714938995.031503) can0 603#015D0D5F0D770D77
(1714938995.031962) can0 603#020D5C0D710D5C0D
(1714938995.032414) can0 603#03760D780D6C0D76
(1714938995.032885) can0 603#040D610D760D5F0D
(1714938995.033382) can0 603#05540D630D000000
(1714938995.033883) can0 603#0600000000000000
(1714938995.034333) can0 603#1149484748494C00
(1714938995.046240) can0 104#01040D0225FFFD62
(1714938995.046749) can0 104#0203000002240101
(1714938995.047220) can0 104#030000025800012E
(1714938995.047678) can0 104#040D790B0D5C0264
(1714938995.048213) can0 104#054B47250002E547
(1714938995.048681) can0 104#060227FFFF000020
(1714938995.049181) can0 104#07000000080FA461
(1714938995.049678) can0 104#08221100544603C4
(1714938995.050128) can0 104#09138E3AF7000001
(1714938995.050628) can0 104#0A00000000000228
(1714938995.051127) can0 104#0B00000000000001
(1714938995.051587) can0 604#016F0D5C0D670D74
(1714938995.052042) can0 604#020D600D6F0D640D
(1714938995.052551) can0 604#035F0D5F0D6D0D79
(1714938995.053007) can0 604#040D6C0D660D610D
(1714938995.053508) can0 604#05760D6E0D000000
(1714938995.054004) can0 604#0600000000000000
(1714938995.054455) can0 604#11494747484B4B00
(1714938995.066617) can0 105#01050D0225FFFD62
(1714938995.066944) can0 105#0203000002240101
(1714938995.067355) can0 105#030000025800012E
(1714938995.067941) can0 105#040D77010D561064
(1714938995.068391) can0 105#054B4726000321A3
(1714938995.068844) can0 105#060227FFFF000020
(1714938995.069334) can0 105#07000000080FA461
(1714938995.069763) can0 105#08221100544603C3
(1714938995.070216) can0 105#0917701AB1000001
(1714938995.070717) can0 105#0A00000000000228
(1714938995.071216) can0 105#0B00000000000001
(1714938995.071638) can0 605#01770D620D5C0D58
(1714938995.072129) can0 605#020D760D6F0D6C0D
(1714938995.072632) can0 605#035E0D6E0D6D0D5D
(1714938995.073082) can0 605#040D710D610D6D0D
(1714938995.073551) can0 605#056F0D560D000000
(1714938995.074046) can0 605#0600000000000000
(1714938995.074505) can0 605#1149474748484B00
(1714938995.086630) can0 106#01060D0225FFFD62
(1714938995.086945) can0 106#0203000002240101
(1714938995.087401) can0 106#030000025800012E
(1714938995.087935) can0 106#040D7B090D600464
(1714938995.088405) can0 106#054F4723000207AE
(1714938995.088871) can0 106#060227FFFF000022
(1714938995.089351) can0 106#07100010080FA461
(1714938995.089823) can0 106#08221100544603BA
(1714938995.090290) can0 106#0913993AEE000001
(1714938995.090708) can0 106#0A00000000000228
(1714938995.091195) can0 106#0B00000000000001
(1714938995.091634) can0 606#01650D620D690D60
(1714938995.092271) can0 606#020D6D0D610D640D
(1714938995.092628) can0 606#03730D7B0D630D6B
(1714938995.093083) can0 606#040D640D690D650D
(1714938995.093550) can0 606#056A0D620D000000
(1714938995.094049) can0 606#0600000000000000
(1714938995.094551) can0 606#1149474F48484D00
(1714938995.106426) can0 107#01070D0225FFFD62
(1714938995.106823) can0 107#0203000002240101
(1714938995.107322) can0 107#030000025800022E
(1714938995.107777) can0 107#040D780A0D570564
(1714938995.108242) can0 107#054C4726000327CC
(1714938995.108799) can0 107#060227FFFF000020
(1714938995.109187) can0 107#07000010080FA461
(1714938995.109647) can0 107#08221100544603C8
(1714938995.110177) can0 107#091386BAF6000001
(1714938995.110637) can0 107#0A00000000000227
(1714938995.111222) can0 107#0B00000000000001
(1714938995.111674) can0 607#01670D6A0D6A0D64
(1714938995.112087) can0 607#020D570D660D6C0D
(1714938995.112633) can0 607#03730D6A0D780D6D
(1714938995.113080) can0 607#040D630D750D620D
(1714938995.113458) can0 607#05780D730D000000
(1714938995.113922) can0 607#0600000000000000
(1714938995.114543) can0 607#1149474748484C00
(1714938995.126721) can0 108#01080D0225FFFD62
(1714938995.126901) can0 108#0203000002240101
(1714938995.127571) can0 108#030000025800012E
(1714938995.128015) can0 108#040D78030D570664
(1714938995.128472) can0 108#054B472600027028
(1714938995.128944) can0 108#060227FFFF000020
(1714938995.129459) can0 108#07000000080FA461
(1714938995.129915) can0 108#0822110054460385
(1714938995.130396) can0 108#09177A9A94000001
(1714938995.130902) can0 108#0A00000000000227
(1714938995.131302) can0 108#0B00000000000001
(1714938995.131866) can0 608#01750D5D0D780D5F
(1714938995.132306) can0 608#020D720D570D6C0D
(1714938995.132771) can0 608#03690D620D700D75
(1714938995.133250) can0 608#040D660D610D640D
(1714938995.133743) can0 608#056A0D660D000000
(1714938995.134244) can0 608#0600000000000000
(1714938995.134717) can0 608#1149474748484B00
(1714938995.146759) can0 109#01090D0225FFFD62
(1714938995.146969) can0 109#0203000002240101
(1714938995.147555) can0 109#030000025800012E
(1714938995.148019) can0 109#040D78010D540D64
(1714938995.148473) can0 109#054F484100022961
(1714938995.148940) can0 109#060227FFFF000022
(1714938995.149406) can0 109#07000010080FA461
(1714938995.149927) can0 109#082211005446037E
(1714938995.150354) can0 109#0913953AF7000001
(1714938995.150870) can0 109#0A00000000000227
(1714938995.151257) can0 109#0B00000000000001
(1714938995.151721) can0 609#01780D750D5D0D67
(1714938995.152318) can0 609#020D760D760D5E0D
(1714938995.152744) can0 609#03670D6E0D6F0D5D
(1714938995.153214) can0 609#040D6F0D540D5A0D
(1714938995.153701) can0 609#056A0D5A0D000000
(1714938995.154221) can0 609#0600000000000000
(1714938995.154684) can0 609#114F4A4C48484C00
(1714938995.166776) can0 10A#010A0D0225FFFD62
(1714938995.166973) can0 10A#0203000002240101
(1714938995.167520) can0 10A#030000025800012E
(1714938995.167953) can0 10A#040D7D020D580664
(1714938995.168453) can0 10A#054C48260001A99E
(1714938995.168952) can0 10A#060224FFFF000021
(1714938995.169399) can0 10A#07000000080FA461
(1714938995.169848) can0 10A#0822050054450311
(1714938995.170403) can0 10A#0912B61B05000001
(1714938995.170899) can0 10A#0A00000000000224
(1714938995.171398) can0 10A#0B00000000000001
(1714938995.171896) can0 60A#01670D7D0D6E0D7C
(1714938995.172354) can0 60A#020D700D580D600D
(1714938995.172819) can0 60A#035E0D6D0D6E0D73
(1714938995.173251) can0 60A#040D640D7B0D6E0D
(1714938995.173644) can0 60A#05680D670D000000
(1714938995.174144) can0 60A#0600000000000000
(1714938995.174616) can0 60A#114A484848494C00
(1714938995.186710) can0 10B#010B0D0225FFFD62
(1714938995.186996) can0 10B#0203000002240101
(1714938995.187607) can0 10B#030000025800012E
(1714938995.188040) can0 10B#040D7B030D590A64
(1714938995.188488) can0 10B#054C48260001E842
(1714938995.188955) can0 10B#060225FFFF000021
(1714938995.189457) can0 10B#07000000080FA461
(1714938995.189919) can0 10B#08220500544503C6
(1714938995.190286) can0 10B#0912B49AF6000001
(1714938995.190788) can0 10B#0A00000000000226
(1714938995.191295) can0 10B#0B00000000000001
(1714938995.191876) can0 60B#01620D730D7B0D73
(1714938995.192305) can0 60B#020D700D750D770D
(1714938995.192752) can0 60B#036E0D640D590D6F
(1714938995.193206) can0 60B#040D610D6A0D680D
(1714938995.193709) can0 60B#05630D640D000000
(1714938995.194209) can0 60B#0600000000000000
(1714938995.194572) can0 60B#114A484848494C00
(1714938995.206778) can0 10C#010C0D0225FFFD63
(1714938995.207065) can0 10C#0203000002240101
(1714938995.207607) can0 10C#030000025800012E
(1714938995.208079) can0 10C#040D78030D590264
(1714938995.208534) can0 10C#054C473600021775
(1714938995.209022) can0 10C#060225FFFF000020
(1714938995.209528) can0 10C#07000010080FA461
(1714938995.210029) can0 10C#08220500544500C5
(1714938995.210446) can0 10C#0912B49AF7000001
(1714938995.210946) can0 10C#0A00000000000226
(1714938995.211358) can0 10C#0B00000000000001
(1714938995.211910) can0 60C#015B0D590D780D76
(1714938995.212402) can0 60C#020D720D650D6A0D
(1714938995.212852) can0 60C#036E0D6F0D6E0D5B
(1714938995.213342) can0 60C#040D6B0D6C0D720D
(1714938995.213809) can0 60C#055F0D590D000000
(1714938995.214232) can0 60C#0600000000000000
(1714938995.214806) can0 60C#1149484748494C00
(1714938995.226715) can0 10D#010D0D0225FFFD62
(1714938995.226916) can0 10D#0203000002240101
(1714938995.227524) can0 10D#030000025800012E
(1714938995.227964) can0 10D#040D780C0D570964
(1714938995.228444) can0 10D#054B472600028451
(1714938995.228910) can0 10D#060225FFFF000020
(1714938995.229401) can0 10D#07000000080FA461
(1714938995.229853) can0 10D#082205005445024D
(1714938995.230344) can0 10D#0912AF9AF6000001
(1714938995.230808) can0 10D#0A00000000000227
(1714938995.231245) can0 10D#0B00000000000001
(1714938995.231698) can0 60D#01700D720D650D5D
(1714938995.232269) can0 60D#020D5E0D600D770D
(1714938995.232712) can0 60D#03630D570D600D62
(1714938995.233194) can0 60D#040D780D760D730D
(1714938995.233648) can0 60D#056C0D640D000000
(1714938995.234177) can0 60D#0600000000000000
(1714938995.234625) can0 60D#1149474747484B00
(1714938996.006111) can0 101#01010D0224FFFD58
(1714938996.006356) can0 101#0203000002240101
(1714938996.006934) can0 101#03012C025800012E
(1714938996.007414) can0 101#040D7F010D591064
(1714938996.007765) can0 101#0545412600026BCC
(1714938996.008379) can0 101#060227FFFF00001A
(1714938996.008856) can0 101#07000000080FA461
(1714938996.009334) can0 101#08221100544603BB
(1714938996.009698) can0 101#091395BAEE000101
(1714938996.010234) can0 101#0A00000000000227
(1714938996.010746) can0 101#0B00000000000001
(1714938996.011162) can0 601#017F0D750D680D62
(1714938996.011654) can0 601#020D5C0D6D0D620D
(1714938996.012145) can0 601#03640D680D620D63
(1714938996.012623) can0 601#040D700D5B0D670D
(1714938996.013108) can0 601#05670D590D000000
(1714938996.013583) can0 601#0600000000000000
(1714938996.013951) can0 601#1143414142444500
(1714938996.019177) can0 102#01020D0225FFFD54
(1714938996.019387) can0 102#0203000002240101
(1714938996.019971) can0 102#03012C025800012E
(1714938996.020419) can0 102#040D77060D560A64
(1714938996.020883) can0 102#054541260002231E
(1714938996.021412) can0 102#060226FFFF00001A
(1714938996.021874) can0 102#07000000080FA461
(1714938996.022312) can0 102#082205005445025C
(1714938996.022803) can0 102#0912AF9B12000101
(1714938996.023243) can0 102#0A00000000000226
(1714938996.023752) can0 102#0B00000000000001
(1714938996.024272) can0 602#01730D650D610D61
(1714938996.024729) can0 602#020D6F0D770D650D
(1714938996.025172) can0 602#03730D710D560D6F
(1714938996.025633) can0 602#040D630D750D690D
(1714938996.026095) can0 602#05690D640D000000
(1714938996.026618) can0 602#0600000000000000
(1714938996.027019) can0 602#1143414142424500
(1714938996.039056) can0 103#01030D0225FFFD62
(1714938996.039394) can0 103#0203000002240101
(1714938996.039974) can0 103#030000025800012E
(1714938996.040418) can0 103#040D78090D540F64
(1714938996.040884) can0 103#054C4736000233D7
(1714938996.041362) can0 103#060225FFFF000020
(1714938996.041877) can0 103#07000010080FA461
(1714938996.042316) can0 103#0822050054450070
(1714938996.042783) can0 103#091493FB87000001
(1714938996.043161) can0 103#0A00000000000226
(1714938996.043683) can0 103#0B00000000000001
(1714938996.044283) can0 603#015D0D5F0D770D77
(1714938996.044716) can0 603#020D5C0D710D5C0D
(1714938996.045170) can0 603#03760D780D6C0D76
(1714938996.045636) can0 603#040D610D760D5F0D
(1714938996.046137) can0 603#05540D630D000000
(1714938996.046637) can0 603#0600000000000000
(1714938996.047094) can0 603#1149484748494C00
(1714938996.059191) can0 104#01040D0225FFFD62
(1714938996.059458) can0 104#0203000002240101
(1714938996.060046) can0 104#030000025800012E
(1714938996.060487) can0 104#040D790B0D5C0264
(1714938996.060950) can0 104#054B47250002E547
(1714938996.061419) can0 104#060227FFFF000020
(1714938996.061933) can0 104#07000000080FA461
(1714938996.062406) can0 104#08221100544603C4
(1714938996.062911) can0 104#09138E3AF7000001
(1714938996.063265) can0 104#0A00000000000228
(1714938996.063780) can0 104#0B00000000000001
(1714938996.064384) can0 604#016F0D5C0D670D74
(1714938996.064847) can0 604#020D600D6F0D630D
(1714938996.065193) can0 604#035F0D5F0D6D0D79
(1714938996.065769) can0 604#040D6C0D660D610D
(1714938996.066235) can0 604#05760D6E0D000000
(1714938996.066764) can0 604#0600000000000000
(1714938996.067154) can0 604#11494747484B4B00
(1714938996.079331) can0 105#01050D0225FFFD62
(1714938996.079530) can0 105#0203000002240101
(1714938996.080155) can0 105#030000025800012E
(1714938996.080589) can0 105#040D77010D561064
(1714938996.081029) can0 105#054B4726000321A3
(1714938996.081553) can0 105#060227FFFF000020
(1714938996.082032) can0 105#07000000080FA461
(1714938996.082487) can0 105#08221100544603C3
(1714938996.082955) can0 105#0917701AB1000001
(1714938996.083369) can0 105#0A00000000000228
(1714938996.084062) can0 105#0B00000000000001
(1714938996.084350) can0 605#01770D620D5C0D58
(1714938996.084898) can0 605#020D760D6F0D6C0D
(1714938996.085363) can0 605#035E0D6E0D6D0D5D
(1714938996.085827) can0 605#040D700D610D6D0D
(1714938996.086305) can0 605#056F0D560D000000
(1714938996.086824) can0 605#0600000000000000
(1714938996.087190) can0 605#1149474748484B00
(1714938996.099119) can0 106#01060D0225FFFD62
(1714938996.099622) can0 106#0203000002240101
(1714938996.100143) can0 106#030000025800012E
(1714938996.100638) can0 106#040D7B090D600464
(1714938996.101022) can0 106#054F4723000207AE
(1714938996.101486) can0 106#060227FFFF000022
(1714938996.101926) can0 106#07100010080FA461
(1714938996.102502) can0 106#08221100544603BA
(1714938996.102956) can0 106#0913993AEE000001
(1714938996.103393) can0 106#0A00000000000228
(1714938996.103968) can0 106#0B00000000000001
(1714938996.104419) can0 606#01650D620D690D60
(1714938996.104887) can0 606#020D6D0D610D640D
(1714938996.105292) can0 606#03730D7B0D630D6B
(1714938996.105732) can0 606#040D640D690D650D
(1714938996.106206) can0 606#056A0D620D000000
(1714938996.106734) can0 606#0600000000000000
(1714938996.107190) can0 606#1149474F48484D00
(1714938996.119272) can0 107#01070D0225FFFD62
(1714938996.119471) can0 107#0203000002240101
(1714938996.119969) can0 107#030000025800022E
(1714938996.120473) can0 107#040D780A0D570564
(1714938996.120990) can0 107#054C4726000327CC
(1714938996.121421) can0 107#060227FFFF000020
(1714938996.122046) can0 107#07000010080FA461
(1714938996.122388) can0 107#08221100544603C8
(1714938996.122911) can0 107#091386BAF6000001
(1714938996.123409) can0 107#0A00000000000227
(1714938996.123850) can0 107#0B00000000000001
(1714938996.124293) can0 607#01670D6A0D6A0D64
(1714938996.124757) can0 607#020D570D660D6C0D
(1714938996.125311) can0 607#03730D6A0D780D6D
(1714938996.125750) can0 607#040D630D750D620D
(1714938996.126222) can0 607#05780D730D000000
(1714938996.126642) can0 607#0600000000000000
(1714938996.127081) can0 607#1149474748484C00
(1714938996.139154) can0 108#01080D0225FFFD62
(1714938996.139736) can0 108#0203000002240101
(1714938996.140188) can0 108#030000025800012E
(1714938996.140655) can0 108#040D78030D570664
(1714938996.141134) can0 108#054B472600027028
(1714938996.141633) can0 108#060227FFFF000020
(1714938996.142091) can0 108#07000000080FA461
(1714938996.142468) can0 108#0822110054460385
(1714938996.142934) can0 108#09177A9A94000001
(1714938996.143469) can0 108#0A00000000000227
(1714938996.144045) can0 108#0B00000000000001
(1714938996.144530) can0 608#01750D5D0D780D5F
(1714938996.145032) can0 608#020D720D570D6C0D
(1714938996.145434) can0 608#03690D620D700D75
(1714938996.145929) can0 608#040D660D610D640D
(1714938996.146408) can0 608#056A0D660D000000
(1714938996.146910) can0 608#0600000000000000
(1714938996.147267) can0 608#1149474748484B00
(1714938996.159404) can0 109#01090D0225FFFD62
(1714938996.159626) can0 109#0203000002240101
(1714938996.160243) can0 109#030000025800012E
(1714938996.160676) can0 109#040D78010D540D64
(1714938996.161129) can0 109#054F484100022961
(1714938996.161636) can0 109#060227FFFF000022
(1714938996.162138) can0 109#07000010080FA461
(1714938996.162555) can0 109#082211005446037E
(1714938996.163034) can0 109#0913953AF7000001
(1714938996.163464) can0 109#0A00000000000227
(1714938996.163942) can0 109#0B00000000000001
(1714938996.164390) can0 609#01780D750D5D0D67
(1714938996.164856) can0 609#020D760D760D5E0D
(1714938996.165429) can0 609#03670D6E0D6F0D5D
(1714938996.165806) can0 609#040D6F0D540D5A0D
(1714938996.166299) can0 609#056A0D5A0D000000
(1714938996.166767) can0 609#0600000000000000
(1714938996.167282) can0 609#114F4A4C48484C00
(1714938996.179455) can0 10A#010A0D0225FFFD62
(1714938996.179637) can0 10A#0203000002240101
(1714938996.180288) can0 10A#030000025800012E
(1714938996.180652) can0 10A#040D7D020D580664
(1714938996.181110) can0 10A#054C48260001A99E
(1714938996.181612) can0 10A#060224FFFF000021
(1714938996.182066) can0 10A#07000000080FA461
(1714938996.182567) can0 10A#0822050054450311
(1714938996.183021) can0 10A#0912B61B05000001
(1714938996.183451) can0 10A#0A00000000000224
(1714938996.184093) can0 10A#0B00000000000001
(1714938996.184536) can0 60A#01670D7D0D6E0D7C
(1714938996.185053) can0 60A#020D700D580D600D
(1714938996.185395) can0 60A#035E0D6D0D6E0D73
(1714938996.185984) can0 60A#040D640D7B0D6E0D
(1714938996.186421) can0 60A#05690D670D000000
(1714938996.186932) can0 60A#0600000000000000
(1714938996.187294) can0 60A#114A484848494C00
(1714938996.199409) can0 10B#010B0D0225FFFD62
(1714938996.199629) can0 10B#0203000002240101
(1714938996.200249) can0 10B#030000025800012E
(1714938996.200693) can0 10B#040D7C030D5A0A64
(1714938996.201183) can0 10B#054C48260001E842
(1714938996.201635) can0 10B#060225FFFF000021
(1714938996.202130) can0 10B#07000000080FA461
(1714938996.202599) can0 10B#08220500544503C6
(1714938996.202975) can0 10B#0912B49AF6000001
(1714938996.203460) can0 10B#0A00000000000226
(1714938996.203937) can0 10B#0B00000000000001
(1714938996.204505) can0 60B#01630D730D7C0D73
(1714938996.204953) can0 60B#020D700D750D770D
(1714938996.205419) can0 60B#036E0D650D5A0D70
(1714938996.205885) can0 60B#040D620D6A0D680D
(1714938996.206363) can0 60B#05630D640D000000
(1714938996.206880) can0 60B#0600000000000000
(1714938996.207293) can0 60B#114A484848494C00
(1714938996.219201) can0 10C#010C0D0225FFFD63
(1714938996.219738) can0 10C#0203000002240101
(1714938996.220238) can0 10C#030000025800012E
(1714938996.220691) can0 10C#040D78030D590264
(1714938996.221148) can0 10C#054C473600021775
(1714938996.221648) can0 10C#060225FFFF000020
(1714938996.222173) can0 10C#07000010080FA461
(1714938996.222611) can0 10C#08220500544500C5
(1714938996.223068) can0 10C#0912B49AF7000001
(1714938996.223586) can0 10C#0A00000000000225
(1714938996.224021) can0 10C#0B00000000000001
(1714938996.224521) can0 60C#015B0D590D780D76
(1714938996.224975) can0 60C#020D720D650D6A0D
(1714938996.225413) can0 60C#036E0D6F0D6E0D5B
(1714938996.225852) can0 60C#040D6B0D6C0D720D
(1714938996.226351) can0 60C#055F0D590D000000
(1714938996.226852) can0 60C#0600000000000000
(1714938996.227346) can0 60C#1149484748494C00
(1714938996.239108) can0 10D#010D0D0225FFFD62
(1714938996.239602) can0 10D#0203000002240101
(1714938996.240177) can0 10D#030000025800012E
(1714938996.240635) can0 10D#040D780C0D570964
(1714938996.241139) can0 10D#054B472600028451
(1714938996.241591) can0 10D#060225FFFF000020
(1714938996.242029) can0 10D#07000000080FA461
(1714938996.242565) can0 10D#082205005445024D
(1714938996.243035) can0 10D#0912AF9AF6000001
(1714938996.243393) can0 10D#0A00000000000227
(1714938996.244057) can0 10D#0B00000000000001
(1714938996.244479) can0 60D#01700D720D650D5D
(1714938996.244906) can0 60D#020D5E0D600D770D
(1714938996.245364) can0 60D#03630D570D600D62
(1714938996.245879) can0 60D#040D780D760D730D
(1714938996.246353) can0 60D#056C0D640D000000
(1714938996.246819) can0 60D#0600000000000000
(1714938996.247212) can0 60D#1149474747484B00
(1714938997.019063) can0 101#01010D0224FFFD58
(1714938997.019362) can0 101#0203000002240101
(1714938997.019941) can0 101#03012C025800012E
(1714938997.020401) can0 101#040D7F010D591064
(1714938997.020835) can0 101#0545412600026BCC
(1714938997.021320) can0 101#060227FFFF00001A
(1714938997.021862) can0 101#07000000080FA461
(1714938997.022289) can0 101#08221100544603BB
(1714938997.022732) can0 101#091395BAEE000101
(1714938997.023178) can0 101#0A00000000000227
(1714938997.023647) can0 101#0B00000000000001
(1714938997.024252) can0 601#017F0D750D680D62
(1714938997.024582) can0 601#020D5C0D6D0D620D
(1714938997.025143) can0 601#03640D680D620D63
(1714938997.025610) can0 601#040D700D5B0D670D
(1714938997.026040) can0 601#05670D590D000000
(1714938997.026573) can0 601#0600000000000000
(1714938997.027054) can0 601#1143414142444500
(1714938997.031986) can0 102#01020D0225FFFD54
(1714938997.032503) can0 102#0203000002240101
(1714938997.032961) can0 102#03012C025800012E
(1714938997.033360) can0 102#040D77060D560A64
(1714938997.033826) can0 102#054541260002231E
(1714938997.034302) can0 102#060226FFFF00001A
(1714938997.034769) can0 102#07000000080FA461
(1714938997.035246) can0 102#082205005445025C
(1714938997.035740) can0 102#0912AF9B12000101
(1714938997.036218) can0 102#0A00000000000226
(1714938997.036846) can0 102#0B00000000000001
(1714938997.037273) can0 602#01730D650D610D61
(1714938997.037666) can0 602#020D6F0D770D650D
(1714938997.038201) can0 602#03730D710D560D6F
(1714938997.038641) can0 602#040D630D750D690D
(1714938997.039036) can0 602#05690D640D000000
(1714938997.039540) can0 602#0600000000000000
(1714938997.040094) can0 602#1143414142424500
(1714938997.051861) can0 103#01030D0225FFFD62
(1714938997.052493) can0 103#0203000002240101
(1714938997.052959) can0 103#030000025800012E
(1714938997.053428) can0 103#040D78090D540F64
(1714938997.053912) can0 103#054C4736000233D7
(1714938997.054382) can0 103#060225FFFF000020
(1714938997.054848) can0 103#07000010080FA461
(1714938997.055253) can0 103#0822050054450070
(1714938997.055713) can0 103#091493FB87000001
(1714938997.056295) can0 103#0A00000000000226
(1714938997.056769) can0 103#0B00000000000001
(1714938997.057243) can0 603#015D0D5F0D770D77
(1714938997.057711) can0 603#020D5C0D700D5C0D
(1714938997.058197) can0 603#03770D780D6C0D76
(1714938997.058655) can0 603#040D610D760D5F0D
(1714938997.059036) can0 603#05540D630D000000
(1714938997.059536) can0 603#0600000000000000
(1714938997.059992) can0 603#1149484748494C00
(1714938997.071982) can0 104#01040D0225FFFD62
(1714938997.072551) can0 104#0203000002240101
(1714938997.073060) can0 104#030000025800012E
(1714938997.073480) can0 104#040D790B0D5C0264
(1714938997.073936) can0 104#054B47250002E547
(1714938997.074416) can0 104#060227FFFF000020
(1714938997.074922) can0 104#07000000080FA461
(1714938997.075349) can0 104#08221100544603C4
(1714938997.075793) can0 104#09138E3AF7000001
(1714938997.076277) can0 104#0A00000000000228
(1714938997.076790) can0 104#0B00000000000001
(1714938997.077265) can0 604#016F0D5C0D670D74
(1714938997.077745) can0 604#020D600D6F0D630D
(1714938997.078200) can0 604#035F0D5F0D6D0D79
(1714938997.078656) can0 604#040D6C0D660D610D
(1714938997.079154) can0 604#05760D6E0D000000
(1714938997.079651) can0 604#0600000000000000
(1714938997.080111) can0 604#11494747484B4B00
(1714938997.092143) can0 105#01050D0225FFFD62
(1714938997.092641) can0 105#0203000002240101
(1714938997.093027) can0 105#030000025800012E
(1714938997.093532) can0 105#040D77010D561064
(1714938997.093987) can0 105#054B4726000321A3
(1714938997.094451) can0 105#060227FFFF000020
(1714938997.094972) can0 105#07000000080FA461
(1714938997.095429) can0 105#08221100544603C3
(1714938997.095890) can0 105#0917701AB1000001
(1714938997.096358) can0 105#0A00000000000228
(1714938997.096864) can0 105#0B00000000000001
(1714938997.097318) can0 605#01770D620D5C0D58
(1714938997.097805) can0 605#020D760D6F0D6C0D
(1714938997.098247) can0 605#035E0D6E0D6D0D5D
(1714938997.098833) can0 605#040D700D610D6D0D
(1714938997.099191) can0 605#056F0D560D000000
(1714938997.099656) can0 605#0600000000000000
(1714938997.100157) can0 605#1149474748484B00
(1714938997.112130) can0 106#01060D0225FFFD62
(1714938997.112633) can0 106#0203000002240101
(1714938997.113131) can0 106#030000025800012E
(1714938997.113594) can0 106#040D7B090D600464
(1714938997.114032) can0 106#054F4723000207AE
(1714938997.114554) can0 106#060227FFFF000022
(1714938997.115041) can0 106#07100010080FA461
(1714938997.115441) can0 106#08221100544603BA
(1714938997.115901) can0 106#0913993AEE000001
(1714938997.116400) can0 106#0A00000000000228
(1714938997.116865) can0 106#0B00000000000001
(1714938997.117341) can0 606#01650D620D6A0D60
(1714938997.117884) can0 606#020D6D0D610D640D
(1714938997.118352) can0 606#03730D7B0D630D6B
(1714938997.118822) can0 606#040D640D690D650D
(1714938997.119194) can0 606#056A0D620D000000
(1714938997.119741) can0 606#0600000000000000
(1714938997.120275) can0 606#1149474F48484D00
(1714938997.132099) can0 107#01070D0225FFFD62
(1714938997.132566) can0 107#0203000002240101
(1714938997.133045) can0 107#030000025800022E
(1714938997.133390) can0 107#040D780A0D570564
(1714938997.134076) can0 107#054C4726000327CC
(1714938997.134406) can0 107#060227FFFF000020
(1714938997.134988) can0 107#07000010080FA461
(1714938997.135361) can0 107#08221100544603C8
(1714938997.135896) can0 107#091386BAF6000001
(1714938997.136371) can0 107#0A00000000000227
(1714938997.136885) can0 107#0B00000000000001
(1714938997.137375) can0 607#01670D6A0D6A0D64
(1714938997.137840) can0 607#020D570D660D6C0D
(1714938997.138202) can0 607#03730D6A0D780D6D
(1714938997.138663) can0 607#040D620D750D620D
(1714938997.139166) can0 607#05780D730D000000
(1714938997.139659) can0 607#0600000000000000
(1714938997.140119) can0 607#1149474748484C00
(1714938997.152245) can0 108#01080D0225FFFD62
(1714938997.152648) can0 108#0203000002240101
(1714938997.153121) can0 108#030000025800012E
(1714938997.153576) can0 108#040D78030D570664
(1714938997.154075) can0 108#054B472600027028
(1714938997.154532) can0 108#060227FFFF000020
(1714938997.155031) can0 108#07000000080FA461
(1714938997.155531) can0 108#0822110054460385
(1714938997.156062) can0 108#09177A9A94000001
(1714938997.156567) can0 108#0A00000000000227
(1714938997.157054) can0 108#0B00000000000001
(1714938997.157522) can0 608#01750D5D0D780D5F
(1714938997.157990) can0 608#020D710D570D6C0D
(1714938997.158463) can0 608#03690D620D700D75
(1714938997.158848) can0 608#040D660D610D640D
(1714938997.159349) can0 608#056A0D660D000000
(1714938997.159924) can0 608#0600000000000000
(1714938997.160395) can0 608#1149474748484B00
(1714938997.172450) can0 109#01090D0225FFFD62
(1714938997.172629) can0 109#0203000002240101
(1714938997.173190) can0 109#030000025800012E
(1714938997.173691) can0 109#040D78010D540D64
(1714938997.174151) can0 109#054F484100022961
(1714938997.174607) can0 109#060227FFFF000022
(1714938997.175037) can0 109#07000010080FA461
(1714938997.175496) can0 109#082211005446037E
(1714938997.176050) can0 109#0913953AF7000001
(1714938997.176443) can0 109#0A00000000000227
(1714938997.176971) can0 109#0B00000000000001
(1714938997.177382) can0 609#01780D750D5D0D67
(1714938997.177894) can0 609#020D760D760D5E0D
(1714938997.178302) can0 609#03670D6E0D6F0D5E
(1714938997.178815) can0 609#040D6F0D540D5A0D
(1714938997.179303) can0 609#056A0D5A0D000000
(1714938997.179769) can0 609#0600000000000000
(1714938997.180246) can0 609#114F4A4C48484C00
(1714938997.192201) can0 10A#010A0D0225FFFD62
(1714938997.192695) can0 10A#0203000002240101
(1714938997.193165) can0 10A#030000025800012E
(1714938997.193665) can0 10A#040D7D020D580664
(1714938997.194196) can0 10A#054C48260001A99E
(1714938997.194654) can0 10A#060224FFFF000021
(1714938997.195066) can0 10A#07000000080FA461
(1714938997.195539) can0 10A#0822050054450311
(1714938997.195974) can0 10A#0912B61B05000001
(1714938997.196474) can0 10A#0A00000000000224
(1714938997.196995) can0 10A#0B00000000000001
(1714938997.197561) can0 60A#01670D7D0D6E0D7C
(1714938997.198044) can0 60A#020D700D580D600D
(1714938997.198396) can0 60A#035E0D6D0D6E0D73
(1714938997.198919) can0 60A#040D640D7B0D6E0D
(1714938997.199350) can0 60A#05690D670D000000
(1714938997.199862) can0 60A#0600000000000000
(1714938997.200304) can0 60A#114A484848494C00
(1714938997.212270) can0 10B#010B0D0225FFFD62
(1714938997.212720) can0 10B#0203000002240101
(1714938997.213227) can0 10B#030000025800012E
(1714938997.213684) can0 10B#040D7C030D5A0A64
(1714938997.214063) can0 10B#054C48260001E842
(1714938997.214536) can0 10B#060225FFFF000021
(1714938997.215018) can0 10B#07000000080FA461
(1714938997.215475) can0 10B#08220500544503C6
(1714938997.215975) can0 10B#0912B49AF6000001
(1714938997.216548) can0 10B#0A00000000000226
(1714938997.217035) can0 10B#0B00000000000001
(1714938997.217496) can0 60B#01630D740D7C0D73
(1714938997.217888) can0 60B#020D700D750D770D
(1714938997.218343) can0 60B#036E0D650D5A0D70
(1714938997.218799) can0 60B#040D620D6A0D680D
(1714938997.219291) can0 60B#05630D640D000000
(1714938997.219800) can0 60B#0600000000000000
(1714938997.220242) can0 60B#114A484848494C00
(1714938997.232470) can0 10C#010C0D0225FFFD63
(1714938997.232752) can0 10C#0203000002240101
(1714938997.233302) can0 10C#030000025800012E
(1714938997.233688) can0 10C#040D78030D590264
(1714938997.234193) can0 10C#054C473600021775
(1714938997.234694) can0 10C#060225FFFF000020
(1714938997.235135) can0 10C#07000010080FA461
(1714938997.235606) can0 10C#08220500544500C5
(1714938997.236156) can0 10C#0912B49AF7000001
(1714938997.236613) can0 10C#0A00000000000225
(1714938997.237106) can0 10C#0B00000000000001
(1714938997.237509) can0 60C#015A0D590D780D76
(1714938997.237974) can0 60C#020D720D650D6A0D
(1714938997.238429) can0 60C#036E0D6F0D6E0D5B
(1714938997.238987) can0 60C#040D6B0D6C0D720D
(1714938997.239407) can0 60C#055F0D590D000000
(1714938997.239906) can0 60C#0600000000000000
(1714938997.240362) can0 60C#1149484748494C00
(1714938997.252337) can0 10D#010D0D0225FFFD62
(1714938997.252624) can0 10D#0203000002240101
(1714938997.253198) can0 10D#030000025800012E
(1714938997.253631) can0 10D#040D780C0D570964
(1714938997.254081) can0 10D#054B472600028451
(1714938997.254584) can0 10D#060225FFFF000020
(1714938997.255052) can0 10D#07000000080FA461
(1714938997.255515) can0 10D#082205005445024D
(1714938997.255978) can0 10D#0912AF9AF6000001
(1714938997.256509) can0 10D#0A00000000000226
(1714938997.256903) can0 10D#0B00000000000001
(1714938997.257357) can0 60D#01700D720D650D5D
(1714938997.257821) can0 60D#020D5E0D600D770D
(1714938997.258297) can0 60D#03630D570D600D62
(1714938997.258852) can0 60D#040D780D760D730D
(1714938997.259240) can0 60D#056C0D640D000000
(1714938997.259835) can0 60D#0600000000000000
(1714938997.260274) can0 60D#1149474747484B00
(1714938998.029872) can0 101#01010D0224FFFD58
(1714938998.030186) can0 101#0203000002240101
(1714938998.030683) can0 101#03012C025800012E
(1714938998.031150) can0 101#040D7F010D591064
(1714938998.031655) can0 101#0545412600026BCC
(1714938998.032162) can0 101#060227FFFF00001A
(1714938998.034711) can0 101#07000000080FA461
(1714938998.035184) can0 101#08221100544603BB
(1714938998.035682) can0 101#091395BAEE000101
(1714938998.036131) can0 101#0A00000000000227
(1714938998.036635) can0 101#0B00000000000001
(1714938998.037091) can0 601#017F0D750D680D62
(1714938998.037522) can0 601#020D5C0D6D0D620D
(1714938998.038038) can0 601#03640D680D620D63
(1714938998.038495) can0 601#040D700D5B0D670D
(1714938998.038936) can0 601#05670D590D000000
(1714938998.039408) can0 601#0600000000000000
(1714938998.039973) can0 601#1143414142444500
(1714938998.042975) can0 102#01020D0225FFFD54
(1714938998.043254) can0 102#0203000002240101
(1714938998.043725) can0 102#03012C025800012E
(1714938998.044210) can0 102#040D77060D560A64
(1714938998.044663) can0 102#054541260002231E
(1714938998.045117) can0 102#060226FFFF00001A
(1714938998.045629) can0 102#07000000080FA461
(1714938998.046084) can0 102#082205005445025C
(1714938998.046539) can0 102#0912AF9B12000101
(1714938998.047037) can0 102#0A00000000000226
(1714938998.047542) can0 102#0B00000000000001
(1714938998.047994) can0 602#01730D650D610D61
(1714938998.048460) can0 602#020D6F0D770D650D
(1714938998.048914) can0 602#03730D710D560D6F
(1714938998.049369) can0 602#040D630D750D690D
(1714938998.049881) can0 602#05690D640D000000
(1714938998.050356) can0 602#0600000000000000
(1714938998.050855) can0 602#1143414142424500
(1714938998.062913) can0 103#01030D0225FFFD62
(1714938998.063210) can0 103#0203000002240101
(1714938998.063677) can0 103#030000025800012E
(1714938998.064238) can0 103#040D78090D540F64
(1714938998.064683) can0 103#054C4736000233D7
(1714938998.065135) can0 103#060225FFFF000020
(1714938998.065650) can0 103#07000010080FA461
(1714938998.066151) can0 103#0822050054450070
(1714938998.066604) can0 103#091493FB87000001
(1714938998.067031) can0 103#0A00000000000226
(1714938998.067534) can0 103#0B00000000000001
(1714938998.067988) can0 603#015D0D5F0D770D77
(1714938998.068442) can0 603#020D5C0D700D5C0D
(1714938998.068907) can0 603#03770D780D6C0D76
(1714938998.069502) can0 603#040D610D760D5F0D
(1714938998.069935) can0 603#05540D630D000000
(1714938998.070423) can0 603#0600000000000000
(1714938998.070926) can0 603#1149484748494C00
(1714938998.083032) can0 104#01040D0225FFFD62
(1714938998.083294) can0 104#0203000002240101
(1714938998.083840) can0 104#030000025800012E
(1714938998.084322) can0 104#040D790B0D5C0264
(1714938998.084778) can0 104#054B47250002E547
(1714938998.085270) can0 104#060227FFFF000020
(1714938998.085743) can0 104#07000000080FA461
(1714938998.086143) can0 104#08221100544603C4
(1714938998.086721) can0 104#09138E3AF7000001
(1714938998.087129) can0 104#0A00000000000228
(1714938998.087640) can0 104#0B00000000000001
(1714938998.088159) can0 604#016F0D5C0D670D74
(1714938998.088624) can0 604#020D600D6F0D630D
(1714938998.089109) can0 604#035F0D5F0D6D0D79
(1714938998.089572) can0 604#040D6C0D660D610D
(1714938998.090051) can0 604#05760D6E0D000000
(1714938998.090554) can0 604#0600000000000000
(1714938998.090994) can0 604#11494747484B4B00
(1714938998.102865) can0 105#01050D0225FFFD62
(1714938998.103373) can0 105#0203000002240101
(1714938998.103882) can0 105#030000025800012E
(1714938998.104358) can0 105#040D77010D561064
(1714938998.104764) can0 105#054B4726000321A3
(1714938998.105370) can0 105#060227FFFF000020
(1714938998.105833) can0 105#07000000080FA461
(1714938998.106320) can0 105#08221100544603C3
(1714938998.106774) can0 105#0917701AB1000001
(1714938998.107203) can0 105#0A00000000000228
(1714938998.107701) can0 105#0B00000000000001
(1714938998.108161) can0 605#01770D620D5C0D58
(1714938998.108738) can0 605#020D760D6F0D6C0D
(1714938998.109185) can0 605#035E0D6E0D6D0D5D
(1714938998.109648) can0 605#040D700D610D6D0D
(1714938998.110102) can0 605#056F0D560D000000
(1714938998.110606) can0 605#0600000000000000
(1714938998.110974) can0 605#1149474748484B00
(1714938998.123210) can0 106#01060D0225FFFD62
(1714938998.123360) can0 106#0203000002240101
(1714938998.123991) can0 106#030000025800012E
(1714938998.124445) can0 106#040D7B090D600464
(1714938998.124901) can0 106#054F4723000207AE
(1714938998.125379) can0 106#060227FFFF000022
(1714938998.125829) can0 106#07100010080FA461
(1714938998.126327) can0 106#08221100544603BA
(1714938998.126773) can0 106#0913993AEE000001
(1714938998.127204) can0 106#0A00000000000228
(1714938998.127712) can0 106#0B00000000000001
(1714938998.128245) can0 606#01650D620D6A0D60
(1714938998.128732) can0 606#020D6D0D610D640D
(1714938998.129183) can0 606#03730D7B0D630D6B
(1714938998.129650) can0 606#040D640D690D650D
(1714938998.130109) can0 606#056A0D620D000000
(1714938998.130632) can0 606#0600000000000000
(1714938998.131022) can0 606#1149474F48484D00
(1714938998.143037) can0 107#01070D0225FFFD62
(1714938998.143321) can0 107#0203000002240101
(1714938998.143786) can0 107#030000025800022E
(1714938998.144263) can0 107#040D780A0D570564
(1714938998.144729) can0 107#054C4726000327CC
(1714938998.145209) can0 107#060227FFFF000020
(1714938998.145782) can0 107#07000010080FA461
(1714938998.146230) can0 107#08221100544603C8
(1714938998.146743) can0 107#091386BAF6000001
(1714938998.147138) can0 107#0A00000000000227
(1714938998.147644) can0 107#0B00000000000001
(1714938998.148156) can0 607#01670D6A0D6A0D64
(1714938998.148650) can0 607#020D570D660D6D0D
(1714938998.149110) can0 607#03730D6A0D780D6D
(1714938998.149582) can0 607#040D620D750D620D
(1714938998.150045) can0 607#05780D730D000000
(1714938998.150549) can0 607#0600000000000000
(1714938998.151049) can0 607#1149474748484C00
(1714938998.163197) can0 108#01080D0225FFFD62
(1714938998.163492) can0 108#0203000002240101
(1714938998.164071) can0 108#030000025800012E
(1714938998.164510) can0 108#040D78030D570664
(1714938998.164952) can0 108#054B472600027028
(1714938998.165424) can0 108#060227FFFF000020
(1714938998.165926) can0 108#07000000080FA461
(1714938998.166376) can0 108#0822110054460385
(1714938998.166896) can0 108#09177A9A94000001
(1714938998.167309) can0 108#0A00000000000227
(1714938998.167775) can0 108#0B00000000000001
(1714938998.168252) can0 608#01750D5D0D780D5F
(1714938998.168753) can0 608#020D710D570D6C0D
(1714938998.169291) can0 608#03690D620D700D75
(1714938998.169733) can0 608#040D660D610D640D
(1714938998.170263) can0 608#056A0D660D000000
(1714938998.170719) can0 608#0600000000000000
(1714938998.171113) can0 608#1149474748484B00
(1714938998.183258) can0 109#01090D0225FFFD62
(1714938998.183495) can0 109#0203000002240101
(1714938998.184069) can0 109#030000025800012E
(1714938998.184525) can0 109#040D78010D540D64
(1714938998.184988) can0 109#054F484100022961
(1714938998.185451) can0 109#060227FFFF000022
(1714938998.185833) can0 109#07000010080FA461
(1714938998.186407) can0 109#082211005446037E
(1714938998.186869) can0 109#0913953AF7000001
(1714938998.187210) can0 109#0A00000000000227
(1714938998.187758) can0 109#0B00000000000001
(1714938998.188348) can0 609#01780D750D5D0D67
(1714938998.188715) can0 609#020D760D760D5E0D
(1714938998.189252) can0 609#03680D6E0D6F0D5D
(1714938998.189714) can0 609#040D6F0D540D5A0D
(1714938998.190201) can0 609#056A0D5A0D000000
(1714938998.190699) can0 609#0600000000000000
(1714938998.191077) can0 609#114F4A4C48484C00
(1714938998.203075) can0 10A#010A0D0225FFFD62
(1714938998.203499) can0 10A#0203000002240101
(1714938998.204071) can0 10A#030000025800012E
(1714938998.204538) can0 10A#040D7D020D580664
(1714938998.205004) can0 10A#054C48260001A99E
(1714938998.205476) can0 10A#060224FFFF000021
(1714938998.205974) can0 10A#07000000080FA461
(1714938998.206447) can0 10A#0822050054450311
(1714938998.206840) can0 10A#0912B61B05000001
(1714938998.207315) can0 10A#0A00000000000224
(1714938998.207805) can0 10A#0B00000000000001
(1714938998.208383) can0 60A#01670D7D0D6E0D7C
(1714938998.208842) can0 60A#020D700D580D600D
(1714938998.209292) can0 60A#035E0D6D0D6E0D73
(1714938998.209782) can0 60A#040D640D7B0D6E0D
(1714938998.210246) can0 60A#05690D670D000000
(1714938998.210745) can0 60A#0600000000000000
(1714938998.211144) can0 60A#114A484848494C00
(1714938998.223213) can0 10B#010B0D0225FFFD62
(1714938998.223492) can0 10B#0203000002240101
(1714938998.224071) can0 10B#030000025800012E
(1714938998.224526) can0 10B#040D7C030D5A0A64
(1714938998.224984) can0 10B#054C48260001E842
(1714938998.225447) can0 10B#060225FFFF000021
(1714938998.225909) can0 10B#07000000080FA461
(1714938998.226385) can0 10B#08220500544503C6
(1714938998.226753) can0 10B#0912B49AF6000001
(1714938998.227269) can0 10B#0A00000000000226
(1714938998.227761) can0 10B#0B00000000000001
(1714938998.228339) can0 60B#01630D740D7C0D73
(1714938998.228712) can0 60B#020D700D750D770D
(1714938998.229168) can0 60B#036E0D650D5A0D70
(1714938998.229621) can0 60B#040D620D6A0D680D
(1714938998.230133) can0 60B#05630D640D000000
(1714938998.230633) can0 60B#0600000000000000
(1714938998.231086) can0 60B#114A484848494C00
(1714938998.243298) can0 10C#010C0D0225FFFD63
(1714938998.243530) can0 10C#0203000002240101
(1714938998.244034) can0 10C#030000025800012E
(1714938998.244491) can0 10C#040D78030D590264
(1714938998.244977) can0 10C#054C473600021775
(1714938998.245436) can0 10C#060225FFFF000020
(1714938998.245952) can0 10C#07000010080FA461
(1714938998.246354) can0 10C#08220500544500C5
(1714938998.246850) can0 10C#0912B49AF7000001
(1714938998.247306) can0 10C#0A00000000000226
(1714938998.247804) can0 10C#0B00000000000001
(1714938998.248305) can0 60C#015A0D590D780D76
(1714938998.248761) can0 60C#020D720D650D6A0D
(1714938998.249203) can0 60C#036E0D6F0D6E0D5B
(1714938998.249703) can0 60C#040D6B0D6C0D720D
(1714938998.250158) can0 60C#055F0D590D000000
(1714938998.250658) can0 60C#0600000000000000
(1714938998.251154) can0 60C#1149484748494C00
(1714938998.263198) can0 10D#010D0D0225FFFD62
(1714938998.263432) can0 10D#0203000002240101
(1714938998.264097) can0 10D#030000025800012E
(1714938998.264413) can0 10D#040D780C0D570964
(1714938998.264944) can0 10D#054B472600028451
(1714938998.265379) can0 10D#060225FFFF000020
(1714938998.265895) can0 10D#07000000080FA461
(1714938998.266330) can0 10D#082205005445024D
(1714938998.266775) can0 10D#0912AF9AF6000001
(1714938998.267264) can0 10D#0A00000000000226
(1714938998.267730) can0 10D#0B00000000000001
(1714938998.268286) can0 60D#01700D720D650D5D
(1714938998.268669) can0 60D#020D5E0D600D770D
(1714938998.269127) can0 60D#03640D570D600D62
(1714938998.269583) can0 60D#040D780D760D730D
(1714938998.270081) can0 60D#056C0D640D000000
(1714938998.270582) can0 60D#0600000000000000
(1714938998.271036) can0 60D#1149474747484B00
(1714938999.047640) can0 101#01010D0224FFFD58
(1714938999.047877) can0 101#0203000002240101
(1714938999.048292) can0 101#03012C025800012E
(1714938999.048813) can0 101#040D7F010D591064
(1714938999.049266) can0 101#0545412600026BCC
(1714938999.049739) can0 101#060227FFFF00001A
(1714938999.050233) can0 101#07000000080FA461
(1714938999.050700) can0 101#08221100544603BB
(1714938999.051130) can0 101#091395BAEE000101
(1714938999.051634) can0 101#0A00000000000227
(1714938999.052099) can0 101#0B00000000000001
(1714938999.052628) can0 601#017F0D750D680D62
(1714938999.053060) can0 601#020D5C0D6D0D620D
(1714938999.053606) can0 601#03640D680D620D63
(1714938999.054126) can0 601#040D700D5B0D670D
(1714938999.054598) can0 601#05670D590D000000
(1714938999.055061) can0 601#0600000000000000
(1714938999.055562) can0 601#1143414142444500
(1714938999.060676) can0 102#01020D0225FFFD54
(1714938999.060882) can0 102#0203000002240101
(1714938999.061509) can0 102#03012C025800012E
(1714938999.061940) can0 102#040D77060D560A64
(1714938999.062392) can0 102#054541360002231E
(1714938999.062909) can0 102#060226FFFF00001A
(1714938999.063277) can0 102#07000000080FA461
(1714938999.063858) can0 102#082205005445025C
(1714938999.064338) can0 102#0912AF9B12000101
(1714938999.064781) can0 102#0A00000000000226
(1714938999.065290) can0 102#0B00000000000001
(1714938999.065755) can0 602#01730D650D610D61
(1714938999.066224) can0 602#020D6F0D770D650D
(1714938999.066688) can0 602#03730D710D560D6F
(1714938999.067058) can0 602#040D630D750D690D
(1714938999.067523) can0 602#05690D640D000000
(1714938999.068022) can0 602#0600000000000000
(1714938999.068523) can0 602#1143424142424500
(1714938999.080513) can0 103#01030D0225FFFD62
(1714938999.080982) can0 103#0203000002240101
(1714938999.081385) can0 103#030000025800012E
(1714938999.081927) can0 103#040D78090D540F64
(1714938999.082396) can0 103#054C4736000233D7
(1714938999.082859) can0 103#060225FFFF000020
(1714938999.083267) can0 103#07000010080FA461
(1714938999.083713) can0 103#0822050054450070
(1714938999.084292) can0 103#091493FB87000001
(1714938999.084782) can0 103#0A00000000000226
(1714938999.085290) can0 103#0B00000000000001
(1714938999.085755) can0 603#015D0D600D770D77
(1714938999.086225) can0 603#020D5C0D700D5C0D
(1714938999.086686) can0 603#03770D780D6C0D76
(1714938999.087096) can0 603#040D610D760D5F0D
(1714938999.087505) can0 603#05540D630D000000
(1714938999.088001) can0 603#0600000000000000
(1714938999.088456) can0 603#1149484748494C00
(1714938999.100498) can0 104#01040D0225FFFD62
(1714938999.100947) can0 104#0203000002240101
(1714938999.101404) can0 104#030000025800012E
(1714938999.101852) can0 104#040D790B0D5C0264
(1714938999.102372) can0 104#054B47250002E547
(1714938999.102931) can0 104#060227FFFF000020
(1714938999.103377) can0 104#07000000080FA461
(1714938999.103912) can0 104#08221100544603C4
(1714938999.104386) can0 104#09138E3AF7000001
(1714938999.104904) can0 104#0A00000000000228
(1714938999.105318) can0 104#0B00000000000001
(1714938999.105783) can0 604#016F0D5C0D670D74
(1714938999.106260) can0 604#020D600D6F0D630D
(1714938999.106712) can0 604#035F0D5F0D6D0D79
(1714938999.107143) can0 604#040D6C0D660D610D
(1714938999.107632) can0 604#05760D6E0D000000
(1714938999.108167) can0 604#0600000000000000
(1714938999.108619) can0 604#11494747484B4B00
(1714938999.120558) can0 105#01050D0225FFFD62
(1714938999.121007) can0 105#0203000002240101
(1714938999.121506) can0 105#030000025800012E
(1714938999.121960) can0 105#040D77010D561064
(1714938999.122426) can0 105#054B4726000321A3
(1714938999.122981) can0 105#060227FFFF000020
(1714938999.123436) can0 105#07000000080FA461
(1714938999.123900) can0 105#08221100544603C3
(1714938999.124365) can0 105#0917701AB1000001
(1714938999.124863) can0 105#0A00000000000228
(1714938999.125401) can0 105#0B00000000000001
(1714938999.125856) can0 605#01770D620D5C0D58
(1714938999.126316) can0 605#020D760D6F0D6C0D
(1714938999.126775) can0 605#035E0D6E0D6D0D5D
(1714938999.127253) can0 605#040D700D610D6D0D
(1714938999.127708) can0 605#056F0D560D000000
(1714938999.128245) can0 605#0600000000000000
(1714938999.128673) can0 605#1149474748484B00
(1714938999.140764) can0 106#01060D0225FFFD62
(1714938999.141165) can0 106#0203000002240101
(1714938999.141666) can0 106#030000025800012E
(1714938999.142052) can0 106#040D7B090D600464
(1714938999.142510) can0 106#054F4723000207AE
(1714938999.142989) can0 106#060227FFFF000022
(1714938999.143487) can0 106#07100010080FA461
(1714938999.144068) can0 106#08221100544603BA
(1714938999.144468) can0 106#0913993AEE000001
(1714938999.144989) can0 106#0A00000000000228
(1714938999.145407) can0 106#0B00000000000001
(1714938999.145863) can0 606#01650D620D6A0D60
(1714938999.146318) can0 606#020D6D0D610D640D
(1714938999.146784) can0 606#03730D7B0D630D6B
(1714938999.147275) can0 606#040D640D690D650D
(1714938999.147738) can0 606#056A0D620D000000
(1714938999.148195) can0 606#0600000000000000
(1714938999.148681) can0 606#1149474F48484D00
(1714938999.160615) can0 107#01070D0225FFFD62
(1714938999.161061) can0 107#0203000002240101
(1714938999.161562) can0 107#030000025800022E
(1714938999.162062) can0 107#040D780A0D570564
(1714938999.162512) can0 107#054C4726000327CC
(1714938999.162969) can0 107#060227FFFF000020
(1714938999.163453) can0 107#07000010080FA461
(1714938999.163820) can0 107#08221100544603C8
(1714938999.164295) can0 107#091386BAF6000001
(1714938999.164811) can0 107#0A00000000000227
(1714938999.165291) can0 107#0B00000000000001
(1714938999.165770) can0 607#01670D6A0D6A0D64
(1714938999.166251) can0 607#020D570D660D6D0D
(1714938999.166820) can0 607#03730D6A0D780D6D
(1714938999.167178) can0 607#040D620D750D620D
(1714938999.167645) can0 607#05780D730D000000
(1714938999.168222) can0 607#0600000000000000
(1714938999.168711) can0 607#1149474748484C00
(1714938999.180811) can0 108#01080D0225FFFD62
(1714938999.181245) can0 108#0203000002240101
(1714938999.181708) can0 108#030000025800012E
(1714938999.182165) can0 108#040D78030D570664
(1714938999.182669) can0 108#054B472600027028
(1714938999.183057) can0 108#060227FFFF000020
(1714938999.183563) can0 108#07000000080FA461
(1714938999.183969) can0 108#0822110054460385
(1714938999.184466) can0 108#09177A9A94000001
(1714938999.184966) can0 108#0A00000000000227
(1714938999.185467) can0 108#0B00000000000001
(1714938999.185969) can0 608#01750D5D0D780D5F
(1714938999.186533) can0 608#020D710D570D6C0D
(1714938999.186984) can0 608#03690D620D700D75
(1714938999.187383) can0 608#040D660D610D640D
(1714938999.187919) can0 608#056A0D660D000000
(1714938999.188452) can0 608#0600000000000000
(1714938999.188906) can0 608#1149474748484B00
(1714938999.200910) can0 109#01090D0225FFFD62
(1714938999.201200) can0 109#0203000002240101
(1714938999.201747) can0 109#030000025800012E
(1714938999.202199) can0 109#040D78010D540D64
(1714938999.202630) can0 109#054F484100022961
(1714938999.203052) can0 109#060227FFFF000022
(1714938999.203572) can0 109#07000010080FA461
(1714938999.204078) can0 109#082211005446037E
(1714938999.204543) can0 109#0913953AF7000001
(1714938999.205088) can0 109#0A00000000000227
(1714938999.205545) can0 109#0B00000000000001
(1714938999.206007) can0 609#01780D750D5D0D67
(1714938999.206463) can0 609#020D760D760D5E0D
(1714938999.206838) can0 609#03680D6E0D6F0D5D
(1714938999.207325) can0 609#040D6F0D540D5A0D
(1714938999.207860) can0 609#056A0D5A0D000000
(1714938999.208384) can0 609#0600000000000000
(1714938999.208849) can0 609#114F4A4C48484C00
(1714938999.220886) can0 10A#010A0D0225FFFD62
(1714938999.221222) can0 10A#0203000002240101
(1714938999.221766) can0 10A#030000025800012E
(1714938999.222177) can0 10A#040D7D020D580664
(1714938999.222641) can0 10A#054C48260001A99E
(1714938999.223086) can0 10A#060224FFFF000021
(1714938999.223562) can0 10A#07000000080FA461
(1714938999.224038) can0 10A#0822050054450311
(1714938999.224512) can0 10A#0912B61B05000001
(1714938999.224976) can0 10A#0A00000000000224
(1714938999.225466) can0 10A#0B00000000000001
(1714938999.225998) can0 60A#01670D7D0D6E0D7C
(1714938999.226410) can0 60A#020D700D580D600D
(1714938999.226864) can0 60A#035E0D6D0D6E0D73
(1714938999.227375) can0 60A#040D640D7B0D6E0D
(1714938999.227851) can0 60A#05690D670D000000
(1714938999.228331) can0 60A#0600000000000000
(1714938999.228769) can0 60A#114A484848494C00
(1714938999.240833) can0 10B#010B0D0225FFFD62
(1714938999.241189) can0 10B#0203000002240101
(1714938999.241709) can0 10B#030000025800012E
(1714938999.242165) can0 10B#040D7C030D5A0A64
(1714938999.242669) can0 10B#054C48260001E842
(1714938999.243050) can0 10B#060225FFFF000021
(1714938999.243511) can0 10B#07000000080FA461
(1714938999.244074) can0 10B#08220500544503C6
(1714938999.244521) can0 10B#0912B49AF6000001
(1714938999.245085) can0 10B#0A00000000000226
(1714938999.245544) can0 10B#0B00000000000001
(1714938999.245996) can0 60B#01630D740D7C0D73
(1714938999.246343) can0 60B#020D700D750D770D
(1714938999.246938) can0 60B#036E0D650D5A0D70
(1714938999.247323) can0 60B#040D620D6A0D680D
(1714938999.247790) can0 60B#05630D640D000000
(1714938999.248311) can0 60B#0600000000000000
(1714938999.248796) can0 60B#114A484848494C00
(1714938999.260860) can0 10C#010C0D0225FFFD63
(1714938999.261293) can0 10C#0203000002240101
(1714938999.261797) can0 10C#030000025800012E
(1714938999.262247) can0 10C#040D78030D590264
(1714938999.262705) can0 10C#054C473600021775
(1714938999.263140) can0 10C#060225FFFF000020
(1714938999.263647) can0 10C#07000010080FA461
(1714938999.264169) can0 10C#08220500544500C5
(1714938999.264630) can0 10C#0912B49AF7000001
(1714938999.265120) can0 10C#0A00000000000225
(1714938999.265623) can0 10C#0B00000000000001
(1714938999.266081) can0 60C#015A0D590D780D76
(1714938999.266478) can0 60C#020D720D650D6A0D
(1714938999.266994) can0 60C#036E0D6F0D6E0D5B
(1714938999.267402) can0 60C#040D6B0D6C0D720D
(1714938999.267994) can0 60C#055F0D590D000000
(1714938999.268414) can0 60C#0600000000000000
(1714938999.268871) can0 60C#1149484748494C00
(1714938999.280653) can0 10D#010D0D0225FFFD62
(1714938999.281093) can0 10D#0203000002240101
(1714938999.281679) can0 10D#030000025800012E
(1714938999.282140) can0 10D#040D780C0D570964
(1714938999.282530) can0 10D#054B472600028451
(1714938999.282995) can0 10D#060225FFFF000020
(1714938999.283496) can0 10D#07000000080FA461
(1714938999.284009) can0 10D#082205005445024D
(1714938999.284429) can0 10D#0912AF9AF6000001
(1714938999.285007) can0 10D#0A00000000000227
(1714938999.285430) can0 10D#0B00000000000001
(1714938999.285894) can0 60D#01700D720D650D5D
(1714938999.286373) can0 60D#020D5E0D600D770D
(1714938999.286826) can0 60D#03640D570D600D62
(1714938999.287268) can0 60D#040D780D760D730D
(1714938999.287773) can0 60D#056C0D650D000000
(1714938999.288262) can0 60D#0600000000000000
(1714938999.288719) can0 60D#1149474747484B00
(1714939000.059197) can0 101#01010D0224FFFD58
(1714939000.059779) can0 101#0203000002240101
(1714939000.060236) can0 101#03012C025800012E
(1714939000.060700) can0 101#040D7F010D591064
(1714939000.061226) can0 101#0545412600026BCC
(1714939000.061725) can0 101#060227FFFF00001A
(1714939000.062271) can0 101#07000000080FA461
(1714939000.062719) can0 101#08221100544603BB
(1714939000.063137) can0 101#091395BAEE000101
(1714939000.063630) can0 101#0A00000000000227
(1714939000.064294) can0 101#0B00000000000001
(1714939000.064734) can0 601#017F0D750D680D62
(1714939000.065146) can0 601#020D5C0D6D0D620D
(1714939000.065685) can0 601#03640D680D620D63
(1714939000.066244) can0 601#040D700D5B0D670D
(1714939000.066696) can0 601#05670D590D000000
(1714939000.067195) can0 601#0600000000000000
(1714939000.067665) can0 601#1143414142444500
(1714939000.072421) can0 102#01020D0225FFFD54
(1714939000.072856) can0 102#0203000002240101
(1714939000.073301) can0 102#03012C025800012E
(1714939000.073799) can0 102#040D77060D560A64
(1714939000.074265) can0 102#054541260002231E
(1714939000.074737) can0 102#060226FFFF00001A
(1714939000.075150) can0 102#07000000080FA461
(1714939000.075615) can0 102#082205005445025C
(1714939000.076039) can0 102#0912AF9B12000101
(1714939000.076544) can0 102#0A00000000000226
(1714939000.077195) can0 102#0B00000000000001
(1714939000.077612) can0 602#01730D650D610D61
(1714939000.078072) can0 602#020D6F0D770D650D
(1714939000.078546) can0 602#03730D710D560D6F
(1714939000.079010) can0 602#040D630D750D690D
(1714939000.079391) can0 602#05690D640D000000
(1714939000.079983) can0 602#0600000000000000
(1714939000.080451) can0 602#1143414142424500
(1714939000.092368) can0 103#01030D0225FFFD62
(1714939000.092739) can0 103#0203000002240101
(1714939000.093301) can0 103#030000025800012E
(1714939000.093767) can0 103#040D78090D540F64
(1714939000.094235) can0 103#054C4736000233D7
(1714939000.094699) can0 103#060225FFFF000020
(1714939000.095105) can0 103#07000010080FA461
(1714939000.095637) can0 103#0822050054450070
(1714939000.096137) can0 103#091493FB87000001
(1714939000.096634) can0 103#0A00000000000226
(1714939000.097040) can0 103#0B00000000000001
(1714939000.097499) can0 603#015D0D600D760D77
(1714939000.097968) can0 603#020D5C0D700D5C0D
(1714939000.098460) can0 603#03770D780D6C0D76
(1714939000.098923) can0 603#040D610D760D600D
(1714939000.099419) can0 603#05540D630D000000
(1714939000.099880) can0 603#0600000000000000
(1714939000.100358) can0 603#1149484748494C00
(1714939000.112367) can0 104#01040D0225FFFD62
(1714939000.112870) can0 104#0203000002240101
(1714939000.113348) can0 104#030000025800012E
(1714939000.113790) can0 104#040D790B0D5C0264
(1714939000.114299) can0 104#054B47250002E547
(1714939000.114764) can0 104#060227FFFF000020
(1714939000.115209) can0 104#07000000080FA461
(1714939000.115631) can0 104#08221100544603C4
(1714939000.116245) can0 104#09138E3AF7000001
(1714939000.116619) can0 104#0A00000000000228
(1714939000.117151) can0 104#0B00000000000001
(1714939000.117609) can0 604#016F0D5C0D670D74
(1714939000.118061) can0 604#020D600D6F0D640D
(1714939000.118563) can0 604#035F0D5F0D6D0D79
(1714939000.119015) can0 604#040D6C0D660D610D
(1714939000.119525) can0 604#05760D6E0D000000
(1714939000.120003) can0 604#0600000000000000
(1714939000.120463) can0 604#11494747484B4B00
(1714939000.132533) can0 105#01050D0225FFFD62
(1714939000.132975) can0 105#0203000002240101
(1714939000.133446) can0 105#030000025800012E
(1714939000.133903) can0 105#040D77010D561064
(1714939000.134390) can0 105#054B4726000321A3
(1714939000.134860) can0 105#060227FFFF000020
(1714939000.135274) can0 105#07000000080FA461
(1714939000.135748) can0 105#08221100544603C3
(1714939000.136309) can0 105#0917701AB1000001
(1714939000.136794) can0 105#0A00000000000228
(1714939000.137265) can0 105#0B00000000000001
(1714939000.137784) can0 605#01770D620D5C0D58
(1714939000.138221) can0 605#020D760D6F0D6C0D
(1714939000.138675) can0 605#035E0D6E0D6D0D5D
(1714939000.139069) can0 605#040D710D610D6D0D
(1714939000.139546) can0 605#056F0D560D000000
(1714939000.140023) can0 605#0600000000000000
(1714939000.140520) can0 605#1149474748484B00
(1714939000.152565) can0 106#01060D0225FFFD62
(1714939000.153014) can0 106#0203000002240101
(1714939000.153456) can0 106#030000025800012E
(1714939000.153849) can0 106#040D7B090D600464
(1714939000.154335) can0 106#054F4723000207AE
(1714939000.154847) can0 106#060227FFFF000022
(1714939000.155321) can0 106#07100010080FA461
(1714939000.155772) can0 106#08221100544603BA
(1714939000.156314) can0 106#0913993AEE000001
(1714939000.156794) can0 106#0A00000000000228
(1714939000.157265) can0 106#0B00000000000001
(1714939000.157783) can0 606#01650D620D690D60
(1714939000.158221) can0 606#020D6D0D610D640D
(1714939000.158677) can0 606#03730D7B0D630D6B
(1714939000.159035) can0 606#040D640D690D650D
(1714939000.159534) can0 606#056A0D620D000000
(1714939000.160070) can0 606#0600000000000000
(1714939000.160489) can0 606#1149474F48484D00
(1714939000.172570) can0 107#01070D0225FFFD62
(1714939000.172775) can0 107#0203000002240101
(1714939000.173419) can0 107#030000025800022E
(1714939000.173863) can0 107#040D780A0D570564
(1714939000.174304) can0 107#054C4726000327CC
(1714939000.174791) can0 107#060227FFFF000020
(1714939000.175224) can0 107#07000010080FA461
(1714939000.175659) can0 107#08221100544603C8
(1714939000.176235) can0 107#091386BAF6000001
(1714939000.176652) can0 107#0A00000000000227
(1714939000.177148) can0 107#0B00000000000001
(1714939000.177734) can0 607#01670D6A0D6A0D64
(1714939000.178158) can0 607#020D570D660D6D0D
(1714939000.178609) can0 607#03730D6A0D780D6D
(1714939000.179002) can0 607#040D630D760D620D
(1714939000.179506) can0 607#05780D730D000000
(1714939000.180006) can0 607#0600000000000000
(1714939000.180459) can0 607#1149474748484C00
(1714939000.192742) can0 108#01080D0225FFFD62
(1714939000.192961) can0 108#0203000002240101
(1714939000.193552) can0 108#030000025800012E
(1714939000.193996) can0 108#040D78030D570664
(1714939000.194512) can0 108#054B472600027028
(1714939000.194964) can0 108#060227FFFF000020
(1714939000.195378) can0 108#07000000080FA461
(1714939000.195905) can0 108#0822110054460385
(1714939000.196393) can0 108#09177A9A94000001
(1714939000.196766) can0 108#0A00000000000227
(1714939000.197273) can0 108#0B00000000000001
(1714939000.197773) can0 608#01750D5D0D780D5F
(1714939000.198252) can0 608#020D720D570D6C0D
(1714939000.198824) can0 608#03690D620D700D75
(1714939000.199188) can0 608#040D660D610D640D
(1714939000.199659) can0 608#056A0D660D000000
(1714939000.200290) can0 608#0600000000000000
(1714939000.200737) can0 608#1149474748484B00
(1714939000.212636) can0 109#01090D0225FFFD62
(1714939000.213004) can0 109#0203000002240101
(1714939000.213504) can0 109#030000025800012E
(1714939000.214005) can0 109#040D78010D540D64
(1714939000.214415) can0 109#054F484100022961
(1714939000.214880) can0 109#060227FFFF000022
(1714939000.215374) can0 109#07000010080FA461
(1714939000.215837) can0 109#082211005446037E
(1714939000.216318) can0 109#0913953AF7000001
(1714939000.216777) can0 109#0A00000000000227
(1714939000.217277) can0 109#0B00000000000001
(1714939000.217734) can0 609#01780D750D5D0D67
(1714939000.218235) can0 609#020D760D760D5E0D
(1714939000.218689) can0 609#03680D6E0D6F0D5D
(1714939000.219144) can0 609#040D6F0D540D5A0D
(1714939000.219674) can0 609#056A0D5A0D000000
(1714939000.220152) can0 609#0600000000000000
(1714939000.220611) can0 609#114F4A4C48484C00
(1714939000.232691) can0 10A#010A0D0225FFFD62
(1714939000.233131) can0 10A#0203000002240101
(1714939000.233607) can0 10A#030000025800012E
(1714939000.234068) can0 10A#040D7D020D580664
(1714939000.234526) can0 10A#054C48260001A99E
(1714939000.234900) can0 10A#060224FFFF000021
(1714939000.235397) can0 10A#07000000080FA461
(1714939000.235949) can0 10A#0822050054450311
(1714939000.236308) can0 10A#0912B61B05000001
(1714939000.236818) can0 10A#0A00000000000224
(1714939000.237422) can0 10A#0B00000000000001
(1714939000.237884) can0 60A#01670D7D0D6E0D7C
(1714939000.238361) can0 60A#020D700D580D600D
(1714939000.238823) can0 60A#035E0D6D0D6E0D73
(1714939000.239238) can0 60A#040D640D7B0D6E0D
(1714939000.239712) can0 60A#05690D670D000000
(1714939000.240270) can0 60A#0600000000000000
(1714939000.240719) can0 60A#114A484848494C00
(1714939000.252507) can0 10B#010B0D0225FFFD62
(1714939000.253085) can0 10B#0203000002240101
(1714939000.253576) can0 10B#030000025800012E
(1714939000.254007) can0 10B#040D7C030D5A0A64
(1714939000.254415) can0 10B#054C48260001E842
(1714939000.254880) can0 10B#060225FFFF000021
(1714939000.255381) can0 10B#07000000080FA461
(1714939000.255908) can0 10B#08220500544503C6
(1714939000.256393) can0 10B#0912B49AF6000001
(1714939000.256765) can0 10B#0A00000000000226
(1714939000.257252) can0 10B#0B00000000000001
(1714939000.257874) can0 60B#01630D740D7C0D73
(1714939000.258305) can0 60B#020D700D750D770D
(1714939000.258764) can0 60B#036E0D650D5A0D70
(1714939000.259152) can0 60B#040D620D6A0D680D
(1714939000.259614) can0 60B#05630D640D000000
(1714939000.260080) can0 60B#0600000000000000
(1714939000.260700) can0 60B#114A484848494C00
(1714939000.272604) can0 10C#010C0D0225FFFD63
(1714939000.273063) can0 10C#0203000002240101
(1714939000.273563) can0 10C#030000025800012E
(1714939000.274038) can0 10C#040D78030D590264
(1714939000.274540) can0 10C#054C473600021775
(1714939000.275083) can0 10C#060225FFFF000020
(1714939000.275459) can0 10C#07000010080FA461
(1714939000.275926) can0 10C#08220500544500C5
(1714939000.276382) can0 10C#0912B49AF7000001
(1714939000.276875) can0 10C#0A00000000000225
(1714939000.277382) can0 10C#0B00000000000001
(1714939000.277836) can0 60C#015B0D590D780D76
(1714939000.278323) can0 60C#020D720D650D6A0D
(1714939000.278753) can0 60C#036E0D6F0D6E0D5B
(1714939000.279228) can0 60C#040D6B0D6C0D720D
(1714939000.279760) can0 60C#055F0D590D000000
(1714939000.280313) can0 60C#0600000000000000
(1714939000.280764) can0 60C#1149484748494C00
(1714939000.292730) can0 10D#010D0D0225FFFD62
(1714939000.293013) can0 10D#0203000002240101
(1714939000.293556) can0 10D#030000025800012E
(1714939000.293977) can0 10D#040D780C0D570964
(1714939000.294452) can0 10D#054B472600028451
(1714939000.294889) can0 10D#060225FFFF000020
(1714939000.295336) can0 10D#07000000080FA461
(1714939000.295806) can0 10D#082205005445024D
(1714939000.296276) can0 10D#0912AF9AF6000001
(1714939000.296778) can0 10D#0A00000000000227
(1714939000.297291) can0 10D#0B00000000000001
(1714939000.297774) can0 60D#01700D720D650D5D
(1714939000.298211) can0 60D#020D5E0D600D770D
(1714939000.298676) can0 60D#03640D570D600D62
(1714939000.299141) can0 60D#040D780D760D730D
(1714939000.299640) can0 60D#056C0D650D000000
(1714939000.300148) can0 60D#0600000000000000
(1714939000.300514) can0 60D#1149474747484B00
(1714939001.072146) can0 101#01010D0224FFFD58
(1714939001.072640) can0 101#0203000002240101
(1714939001.073096) can0 101#03012C025800012E
(1714939001.073613) can0 101#040D7F010D591064
(1714939001.074089) can0 101#0545412600026BCC
(1714939001.074539) can0 101#060227FFFF00001A
(1714939001.075004) can0 101#07000000080FA461
(1714939001.075418) can0 101#08221100544603BB
(1714939001.075874) can0 101#091395BAEE000101
(1714939001.076360) can0 101#0A00000000000227
(1714939001.076863) can0 101#0B00000000000001
(1714939001.077344) can0 601#017F0D750D680D62
(1714939001.077796) can0 601#020D5C0D6C0D620D
(1714939001.078265) can0 601#03640D680D620D63
(1714939001.078762) can0 601#040D700D5B0D670D
(1714939001.079194) can0 601#05670D590D000000
(1714939001.079650) can0 601#0600000000000000
(1714939001.080290) can0 601#1143414142444500
(1714939001.085339) can0 102#01020D0225FFFD54
(1714939001.085575) can0 102#0203000002240101
(1714939001.086211) can0 102#03012C025800012E
(1714939001.086642) can0 102#040D77060D560A64
(1714939001.087023) can0 102#054541260002231E
(1714939001.087537) can0 102#060226FFFF00001A
(1714939001.088091) can0 102#07000000080FA461
(1714939001.088540) can0 102#082205005445025C
(1714939001.088935) can0 102#0912AF9B12000101
(1714939001.089433) can0 102#0A00000000000226
(1714939001.089935) can0 102#0B00000000000001
(1714939001.090386) can0 602#01730D650D610D61
(1714939001.090843) can0 602#020D6F0D770D650D
(1714939001.091263) can0 602#03730D710D560D6F
(1714939001.091695) can0 602#040D630D750D690D
(1714939001.092231) can0 602#05690D640D000000
(1714939001.092819) can0 602#0600000000000000
(1714939001.093230) can0 602#1143414142424500
(1714939001.105331) can0 103#01030D0225FFFD62
(1714939001.105611) can0 103#0203000002240101
(1714939001.106151) can0 103#030000025800012E
(1714939001.106642) can0 103#040D78090D540F64
(1714939001.107011) can0 103#054C4736000233D7
(1714939001.107482) can0 103#060225FFFF000020
(1714939001.108099) can0 103#07000010080FA461
(1714939001.108540) can0 103#0822050054450070
(1714939001.109005) can0 103#091493FB87000001
(1714939001.109506) can0 103#0A00000000000226
(1714939001.109971) can0 103#0B00000000000001
(1714939001.110363) can0 603#015D0D600D760D77
(1714939001.110827) can0 603#020D5C0D710D5C0D
(1714939001.111296) can0 603#03770D780D6C0D76
(1714939001.111764) can0 603#040D610D760D600D
(1714939001.112316) can0 603#05540D630D000000
(1714939001.112804) can0 603#0600000000000000
(1714939001.113276) can0 603#1149484748494C00
(1714939001.125214) can0 104#01040D0225FFFD62
(1714939001.125737) can0 104#0203000002240101
(1714939001.126234) can0 104#030000025800012E
(1714939001.126699) can0 104#040D790B0D5C0264
(1714939001.127074) can0 104#054B47250002E547
(1714939001.127617) can0 104#060227FFFF000020
(1714939001.128060) can0 104#07000000080FA461
(1714939001.128560) can0 104#08221100544603C4
(1714939001.128985) can0 104#09138E3AF7000001
(1714939001.129514) can0 104#0A00000000000228
(1714939001.130014) can0 104#0B00000000000001
(1714939001.130472) can0 604#016F0D5C0D670D74
(1714939001.130934) can0 604#020D600D6F0D640D
(1714939001.131435) can0 604#035F0D5F0D6D0D79
(1714939001.131962) can0 604#040D6C0D660D610D
(1714939001.132413) can0 604#05760D6E0D000000
(1714939001.132930) can0 604#0600000000000000
(1714939001.133414) can0 604#11494747484B4B00
(1714939001.145481) can0 105#01050D0225FFFD62
(1714939001.145691) can0 105#0203000002240101
(1714939001.146328) can0 105#030000025800012E
(1714939001.146776) can0 105#040D77010D561064
(1714939001.147175) can0 105#054B4726000321A3
(1714939001.147646) can0 105#060227FFFF000020
(1714939001.148250) can0 105#07000000080FA461
(1714939001.148685) can0 105#08221100544603C3
(1714939001.149148) can0 105#0917701AB1000001
(1714939001.149671) can0 105#0A00000000000228
(1714939001.150107) can0 105#0B00000000000001
(1714939001.150546) can0 605#01770D620D5C0D58
(1714939001.151026) can0 605#020D760D6F0D6C0D
(1714939001.151493) can0 605#035E0D6E0D6D0D5D
(1714939001.151957) can0 605#040D710D610D6D0D
(1714939001.152410) can0 605#056F0D560D000000
(1714939001.153018) can0 605#0600000000000000
(1714939001.153459) can0 605#1149474748484B00
(1714939001.165532) can0 106#01060D0225FFFD62
(1714939001.165819) can0 106#0203000002240101
(1714939001.166369) can0 106#030000025800012E
(1714939001.166803) can0 106#040D7B090D600464
(1714939001.167206) can0 106#054F4723000207AE
(1714939001.167676) can0 106#060227FFFF000022
(1714939001.168244) can0 106#07100010080FA461
(1714939001.168685) can0 106#08221100544603BA
(1714939001.169183) can0 106#0913993AEE000001
(1714939001.169652) can0 106#0A00000000000228
(1714939001.170194) can0 106#0B00000000000001
(1714939001.170641) can0 606#01650D620D690D60
(1714939001.171015) can0 606#020D6D0D610D640D
(1714939001.171471) can0 606#03730D7B0D630D6B
(1714939001.172113) can0 606#040D640D690D650D
(1714939001.172531) can0 606#056A0D620D000000
(1714939001.172937) can0 606#0600000000000000
(1714939001.173388) can0 606#1149474F48484D00
(1714939001.185439) can0 107#01070D0225FFFD62
(1714939001.185665) can0 107#0203000002240101
(1714939001.186301) can0 107#030000025800022E
(1714939001.186743) can0 107#040D780A0D570564
(1714939001.187117) can0 107#054C4726000327CC
(1714939001.187643) can0 107#060227FFFF000020
(1714939001.188117) can0 107#07000010080FA461
(1714939001.188572) can0 107#08221100544603C8
(1714939001.188971) can0 107#091386BAF6000001
(1714939001.189615) can0 107#0A00000000000227
(1714939001.190086) can0 107#0B00000000000001
(1714939001.190587) can0 607#01670D6A0D6A0D64
(1714939001.191100) can0 607#020D570D660D6D0D
(1714939001.191404) can0 607#03730D6A0D780D6D
(1714939001.191942) can0 607#040D630D760D620D
(1714939001.192414) can0 607#05780D730D000000
(1714939001.192932) can0 607#0600000000000000
(1714939001.193417) can0 607#1149474748484C00
(1714939001.205475) can0 108#01080D0225FFFD62
(1714939001.205856) can0 108#0203000002240101
(1714939001.206344) can0 108#030000025800012E
(1714939001.206810) can0 108#040D79030D570664
(1714939001.207288) can0 108#054B472600027028
(1714939001.207743) can0 108#060227FFFF000020
(1714939001.208216) can0 108#07000000080FA461
(1714939001.208648) can0 108#0822110054460385
(1714939001.209291) can0 108#09177A9A94000001
(1714939001.209697) can0 108#0A00000000000227
(1714939001.210198) can0 108#0B00000000000001
(1714939001.210652) can0 608#01750D5D0D790D5F
(1714939001.211116) can0 608#020D720D570D6C0D
(1714939001.211604) can0 608#03690D620D700D75
(1714939001.212001) can0 608#040D660D610D640D
(1714939001.212511) can0 608#056A0D660D000000
(1714939001.212991) can0 608#0600000000000000
(1714939001.213489) can0 608#1149474748484B00
(1714939001.225564) can0 109#01090D0225FFFD62
(1714939001.225854) can0 109#0203000002240101
(1714939001.226443) can0 109#030000025800012E
(1714939001.226891) can0 109#040D78010D540D64
(1714939001.227298) can0 109#054F484100022961
(1714939001.227734) can0 109#060227FFFF000022
(1714939001.228329) can0 109#07000010080FA461
(1714939001.228769) can0 109#082211005446037E
(1714939001.229223) can0 109#0913953AF7000001
(1714939001.229662) can0 109#0A00000000000227
(1714939001.230162) can0 109#0B00000000000001
(1714939001.230619) can0 609#01780D750D5D0D67
(1714939001.231073) can0 609#020D760D760D5E0D
(1714939001.231530) can0 609#03680D6E0D6F0D5D
(1714939001.231991) can0 609#040D6F0D540D5A0D
(1714939001.232492) can0 609#056A0D5A0D000000
(1714939001.233013) can0 609#0600000000000000
(1714939001.233472) can0 609#114F4A4C48484C00
(1714939001.245655) can0 10A#010A0D0225FFFD62
(1714939001.245847) can0 10A#0203000002240101
(1714939001.246487) can0 10A#030000025800012E
(1714939001.246932) can0 10A#040D7D020D580664
(1714939001.247299) can0 10A#054C48260001A99E
(1714939001.247881) can0 10A#060224FFFF000021
(1714939001.248357) can0 10A#07000000080FA461
(1714939001.248807) can0 10A#0822050054450311
(1714939001.249276) can0 10A#0912B61B05000001
(1714939001.249682) can0 10A#0A00000000000224
(1714939001.250294) can0 10A#0B00000000000001
(1714939001.250745) can0 60A#01670D7D0D6D0D7C
(1714939001.251093) can0 60A#020D700D580D600D
(1714939001.251548) can0 60A#035E0D6D0D6E0D73
(1714939001.252047) can0 60A#040D640D7B0D6E0D
(1714939001.252529) can0 60A#05690D670D000000
(1714939001.253013) can0 60A#0600000000000000
(1714939001.253515) can0 60A#114A484848494C00
(1714939001.265581) can0 10B#010B0D0225FFFD62
(1714939001.265817) can0 10B#0203000002240101
(1714939001.266453) can0 10B#030000025800012E
(1714939001.266891) can0 10B#040D7C030D5A0A64
(1714939001.267329) can0 10B#054C48260001E842
(1714939001.267807) can0 10B#060225FFFF000021
(1714939001.268278) can0 10B#07000000080FA461
(1714939001.268784) can0 10B#08220500544503C6
(1714939001.269223) can0 10B#0912B49AF6000001
(1714939001.269736) can0 10B#0A00000000000226
(1714939001.270082) can0 10B#0B00000000000001
(1714939001.270582) can0 60B#01630D740D7C0D73
(1714939001.271082) can0 60B#020D700D750D770D
(1714939001.271503) can0 60B#036E0D650D5A0D70
(1714939001.272104) can0 60B#040D620D6A0D680D
(1714939001.272540) can0 60B#05630D640D000000
(1714939001.273028) can0 60B#0600000000000000
(1714939001.273527) can0 60B#114A484848494C00
(1714939001.285547) can0 10C#010C0D0225FFFD63
(1714939001.286017) can0 10C#0203000002240101
(1714939001.286476) can0 10C#030000025800012E
(1714939001.286939) can0 10C#040D78030D590264
(1714939001.287346) can0 10C#054C473600021775
(1714939001.287934) can0 10C#060225FFFF000020
(1714939001.288417) can0 10C#07000010080FA461
(1714939001.288785) can0 10C#08220500544500C5
(1714939001.289262) can0 10C#0912B49AF7000001
(1714939001.289762) can0 10C#0A00000000000226
(1714939001.290242) can0 10C#0B00000000000001
(1714939001.290743) can0 60C#015B0D590D780D76
(1714939001.291198) can0 60C#020D720D650D6A0D
(1714939001.291621) can0 60C#036E0D6F0D6E0D5B
(1714939001.292118) can0 60C#040D6B0D6C0D720D
(1714939001.292616) can0 60C#055F0D590D000000
(1714939001.293118) can0 60C#0600000000000000
(1714939001.293548) can0 60C#1149484748494C00
(1714939001.305562) can0 10D#010D0D0225FFFD62
(1714939001.305768) can0 10D#0203000002240101
(1714939001.306391) can0 10D#030000025800012E
(1714939001.306859) can0 10D#040D780C0D570964
(1714939001.307244) can0 10D#054B472600028451
(1714939001.307724) can0 10D#060225FFFF000020
(1714939001.308278) can0 10D#07000000080FA461
(1714939001.308729) can0 10D#082205005445024D
(1714939001.309186) can0 10D#0912AF9AF6000001
(1714939001.309692) can0 10D#0A00000000000226
(1714939001.310115) can0 10D#0B00000000000001
(1714939001.310578) can0 60D#01700D720D650D5D
(1714939001.311075) can0 60D#020D5E0D600D770D
(1714939001.311530) can0 60D#03630D570D600D62
(1714939001.311993) can0 60D#040D780D760D730D
(1714939001.312445) can0 60D#056C0D650D000000
(1714939001.313025) can0 60D#0600000000000000
(1714939001.313505) can0 60D#1149474747484B00
(1714939002.082929) can0 101#01010D0224FFFD58
(1714939002.083357) can0 101#0203000002240101
(1714939002.083832) can0 101#03012C025800012E
(1714939002.084370) can0 101#040D7F010D591064
(1714939002.084881) can0 101#0545412600026BCC
(1714939002.085325) can0 101#060227FFFF00001A
(1714939002.085835) can0 101#07000000080FA461
(1714939002.086325) can0 101#08221100544603BB
(1714939002.086905) can0 101#091395BAEE000101
(1714939002.087424) can0 101#0A00000000000227
(1714939002.087833) can0 101#0B00000000000001
(1714939002.088319) can0 601#017F0D750D680D62
(1714939002.088818) can0 601#020D5C0D6C0D620D
(1714939002.089304) can0 601#03640D680D620D63
(1714939002.089843) can0 601#040D700D5B0D670D
(1714939002.090271) can0 601#05670D590D000000
(1714939002.090850) can0 601#0600000000000000
(1714939002.091350) can0 601#1143414142444500
(1714939002.095935) can0 102#01020D0225FFFD54
(1714939002.096412) can0 102#0203000002240101
(1714939002.096852) can0 102#03012C025800012E
(1714939002.097353) can0 102#040D77060D560A64
(1714939002.097819) can0 102#054541360002231E
(1714939002.098259) can0 102#060226FFFF00001A
(1714939002.098745) can0 102#07000000080FA461
(1714939002.099203) can0 102#082205005445025C
(1714939002.099702) can0 102#0912AF9B12000101
(1714939002.100155) can0 102#0A00000000000226
